! Sonnet Data File
! From: em Version : 18.56
! From Project: cpw
! Data is De-embedded 
! Data File Written: 06/13/2025 23:42:06
! ->  Created by pysonnet 0.0.4
!< HDATE 06/13/2025 23:19:25
!< MDATE 06/13/2025 23:19:25
# GHZ S RI R 50.00000
7.050000000000001 0.3230261315116 0.2243316320669 0.5281529881604 -0.752555366704 0.5281529881604 -0.752555366704 0.3208306116756 0.2274930390643
7.050200000000000 0.3230560244020 0.2243176611253 0.5281180115200 -0.752570792348 0.5281180115200 -0.752570792348 0.3208466604078 0.2274993273268
7.050400000000001 0.3230861731494 0.2243035546107 0.5280828405645 -0.752586288930 0.5280828405645 -0.752586288930 0.3208627632256 0.2275057801213
7.050600000000000 0.3231165821352 0.2242893104883 0.5280474629907 -0.752601855970 0.5280474629907 -0.752601855970 0.3208789346674 0.2275123809497
7.050800000000001 0.3231472567808 0.2242749258763 0.5280118744769 -0.752617494932 0.5280118744769 -0.752617494932 0.3208951761881 0.2275191329091
7.051000000000000 0.3231782026592 0.2242603978116 0.5279760705801 -0.752633207321 0.5279760705801 -0.752633207321 0.3209114892841 0.2275260391834
7.051200000000001 0.3232094255000 0.2242457232466 0.5279400467318 -0.752648994681 0.5279400467318 -0.752648994681 0.3209278754943 0.2275331030460
7.051400000000000 0.3232409311951 0.2242308990462 0.5279037982335 -0.752664858601 0.5279037982335 -0.752664858601 0.3209443364020 0.2275403278630
7.051600000000001 0.3232727258047 0.2242159219847 0.5278673202522 -0.752680800716 0.5278673202522 -0.752680800716 0.3209608736360 0.2275477170968
7.051800000000000 0.3233048155629 0.2242007887428 0.5278306078150 -0.752696822705 0.5278306078150 -0.752696822705 0.3209774888728 0.2275552743090
7.052000000000000 0.3233372068843 0.2241854959036 0.5277936558047 -0.752712926296 0.5277936558047 -0.752712926296 0.3209941838381 0.2275630031645
7.052200000000000 0.3233699063707 0.2241700399493 0.5277564589542 -0.752729113267 0.5277564589542 -0.752729113267 0.3210109603085 0.2275709074349
7.052400000000000 0.3234029208174 0.2241544172577 0.5277190118409 -0.752745385447 0.5277190118409 -0.752745385447 0.3210278201138 0.2275789910030
7.052600000000001 0.3234362572212 0.2241386240977 0.5276813088811 -0.752761744718 0.5276813088811 -0.752761744718 0.3210447651385 0.2275872578659
7.052800000000000 0.3234699227870 0.2241226566257 0.5276433443237 -0.752778193019 0.5276433443237 -0.752778193019 0.3210617973240 0.2275957121404
7.053000000000001 0.3235039249363 0.2241065108810 0.5276051122441 -0.752794732345 0.5276051122441 -0.752794732345 0.3210789186712 0.2276043580667
7.053200000000000 0.3235382713150 0.2240901827817 0.5275666065380 -0.752811364750 0.5275666065380 -0.752811364750 0.3210961312422 0.2276132000133
7.053400000000001 0.3235729698024 0.2240736681196 0.5275278209134 -0.752828092351 0.5275278209134 -0.752828092351 0.3211134371630 0.2276222424822
7.053600000000000 0.3236080285195 0.2240569625553 0.5274887488847 -0.752844917329 0.5274887488847 -0.752844917329 0.3211308386259 0.2276314901133
7.053800000000001 0.3236434558388 0.2240400616134 0.5274493837640 -0.752861841931 0.5274493837640 -0.752861841931 0.3211483378921 0.2276409476905
7.054000000000000 0.3236792603941 0.2240229606770 0.5274097186540 -0.752878868474 0.5274097186540 -0.752878868474 0.3211659372944 0.2276506201470
7.054200000000001 0.3237154510908 0.2240056549818 0.5273697464392 -0.752895999346 0.5273697464392 -0.752895999346 0.3211836392401 0.2276605125710
7.054400000000000 0.3237520371162 0.2239881396105 0.5273294597778 -0.752913237009 0.5273294597778 -0.752913237009 0.3212014462141 0.2276706302122
7.054600000000001 0.3237890279514 0.2239704094863 0.5272888510919 -0.752930584004 0.5272888510919 -0.752930584004 0.3212193607817 0.2276809784879
7.054800000000000 0.3238264333827 0.2239524593668 0.5272479125583 -0.752948042952 0.5272479125583 -0.752948042952 0.3212373855925 0.2276915629901
7.055000000000001 0.3238642635142 0.2239342838367 0.5272066360987 -0.752965616558 0.5272066360987 -0.752965616558 0.3212555233832 0.2277023894921
7.055200000000000 0.3239025287806 0.2239158773010 0.5271650133689 -0.752983307612 0.5271650133689 -0.752983307612 0.3212737769815 0.2277134639566
7.055400000000001 0.3239412399611 0.2238972339774 0.5271230357477 -0.753001119000 0.5271230357477 -0.753001119000 0.3212921493102 0.2277247925429
7.055600000000000 0.3239804081935 0.2238783478883 0.5270806943259 -0.753019053696 0.5270806943259 -0.753019053696 0.3213106433907 0.2277363816154
7.055800000000001 0.3240200449892 0.2238592128524 0.5270379798934 -0.753037114777 0.5270379798934 -0.753037114777 0.3213292623477 0.2277482377520
7.056000000000000 0.3240601622494 0.2238398224762 0.5269948829267 -0.753055305422 0.5269948829267 -0.753055305422 0.3213480094130 0.2277603677535
7.056200000000000 0.3241007722813 0.2238201701448 0.5269513935757 -0.753073628913 0.5269513935757 -0.753073628913 0.3213668879310 0.2277727786526
7.056400000000000 0.3241418878156 0.2238002490119 0.5269075016495 -0.753092088648 0.5269075016495 -0.753092088648 0.3213859013628 0.2277854777244
7.056600000000000 0.3241835220251 0.2237800519900 0.5268631966010 -0.753110688139 0.5268631966010 -0.753110688139 0.3214050532921 0.2277984724965
7.056800000000001 0.3242256885441 0.2237595717393 0.5268184675119 -0.753129431018 0.5268184675119 -0.753129431018 0.3214243474300 0.2278117707603
7.057000000000000 0.3242684014885 0.2237388006570 0.5267733030759 -0.753148321046 0.5267733030759 -0.753148321046 0.3214437876210 0.2278253805825
7.057200000000001 0.3243116754772 0.2237177308646 0.5267276915813 -0.753167362112 0.5267276915813 -0.753167362112 0.3214633778492 0.2278393103177
7.057400000000000 0.3243555256553 0.2236963541958 0.5266816208928 -0.753186558245 0.5266816208928 -0.753186558245 0.3214831222444 0.2278535686207
7.057600000000001 0.3243999677172 0.2236746621833 0.5266350784321 -0.753205913619 0.5266350784321 -0.753205913619 0.3215030250891 0.2278681644610
7.057800000000000 0.3244450179325 0.2236526460444 0.5265880511571 -0.753225432556 0.5265880511571 -0.753225432556 0.3215230908253 0.2278831071363
7.058000000000001 0.3244906931717 0.2236302966666 0.5265405255414 -0.753245119535 0.5265405255414 -0.753245119535 0.3215433240623 0.2278984062884
7.058200000000000 0.3245370109352 0.2236076045917 0.5264924875504 -0.753264979202 0.5264924875504 -0.753264979202 0.3215637295846 0.2279140719188
7.058400000000001 0.3245839893823 0.2235845599994 0.5264439226179 -0.753285016370 0.5264439226179 -0.753285016370 0.3215843123601 0.2279301144059
7.058600000000000 0.3246316473625 0.2235611526897 0.5263948156206 -0.753305236037 0.5263948156206 -0.753305236037 0.3216050775489 0.2279465445229
7.058800000000001 0.3246800044490 0.2235373720644 0.5263451508510 -0.753325643387 0.5263451508510 -0.753325643387 0.3216260305133 0.2279633734564
7.059000000000000 0.3247290809735 0.2235132071078 0.5262949119891 -0.753346243800 0.5262949119891 -0.753346243800 0.3216471768272 0.2279806128270
7.059200000000001 0.3247788980633 0.2234886463651 0.5262440820724 -0.753367042864 0.5262440820724 -0.753367042864 0.3216685222866 0.2279982747099
7.059400000000000 0.3248294776807 0.2234636779215 0.5261926434633 -0.753388046386 0.5261926434633 -0.753388046386 0.3216900729214 0.2280163716580
7.059600000000001 0.3248808426647 0.2234382893778 0.5261405778163 -0.753409260396 0.5261405778163 -0.753409260396 0.3217118350064 0.2280349167253
7.059800000000000 0.3249330167748 0.2234124678260 0.5260878660408 -0.753430691166 0.5260878660408 -0.753430691166 0.3217338150750 0.2280539234924
7.060000000000000 0.3249860247384 0.2233861998232 0.5260344882642 -0.753452345217 0.5260344882642 -0.753452345217 0.3217560199313 0.2280734060930
7.060200000000000 0.3250398923003 0.2233594713630 0.5259804237904 -0.753474229334 0.5259804237904 -0.753474229334 0.3217784566656 0.2280933792430
7.060400000000000 0.3250946462754 0.2233322678462 0.5259256510573 -0.753496350577 0.5259256510573 -0.753496350577 0.3218011326685 0.2281138582697
7.060600000000001 0.3251503146052 0.2233045740489 0.5258701475908 -0.753518716299 0.5258701475908 -0.753518716299 0.3218240556477 0.2281348591453
7.060800000000000 0.3252069264176 0.2232763740885 0.5258138899561 -0.753541334157 0.5258138899561 -0.753541334157 0.3218472336450 0.2281563985199
7.061000000000001 0.3252645120902 0.2232476513883 0.5257568537057 -0.753564212131 0.5257568537057 -0.753564212131 0.3218706750543 0.2281784937585
7.061200000000000 0.3253231033181 0.2232183886385 0.5256990133247 -0.753587358540 0.5256990133247 -0.753587358540 0.3218943886414 0.2282011629796
7.061400000000001 0.3253827331866 0.2231885677557 0.5256403421708 -0.753610782061 0.5256403421708 -0.753610782061 0.3219183835649 0.2282244250967
7.061600000000000 0.3254434362477 0.2231581698390 0.5255808124126 -0.753634491744 0.5255808124126 -0.753634491744 0.3219426693978 0.2282482998623
7.061800000000001 0.3255052486024 0.2231271751234 0.5255203949614 -0.753658497041 0.5255203949614 -0.753658497041 0.3219672561521 0.2282728079145
7.062000000000000 0.3255682079888 0.2230955629296 0.5254590594002 -0.753682807821 0.5254590594002 -0.753682807821 0.3219921543037 0.2282979708279
7.062200000000001 0.3256323538755 0.2230633116109 0.5253967739065 -0.753707434395 0.5253967739065 -0.753707434395 0.3220173748196 0.2283238111670
7.062400000000000 0.3256977291277 0.2230303972074 0.5253335191256 -0.753732390951 0.5253335191256 -0.753732390951 0.3220429066732 0.2283503864121
7.062600000000001 0.3257653653022 0.2229949179941 0.5252683906805 -0.753755602783 0.5252683906805 -0.753755602783 0.3220694627725 0.2283753598026
7.062800000000000 0.3258343187759 0.2229587273617 0.5252022220907 -0.753779167824 0.5252022220907 -0.753779167824 0.3220963542561 0.2284011186713
7.063000000000001 0.3259046354355 0.2229218004784 0.5251349610911 -0.753803095025 0.5251349610911 -0.753803095025 0.3221236168666 0.2284276562882
7.063200000000000 0.3259763650419 0.2228841099260 0.5250665674934 -0.753827397330 0.5250665674934 -0.753827397330 0.3221512644919 0.2284550011132
7.063400000000001 0.3260495598066 0.2228456269066 0.5249969991141 -0.753852088305 0.5249969991141 -0.753852088305 0.3221793117199 0.2284831830080
7.063600000000000 0.3261242745440 0.2228063211550 0.5249262116496 -0.753877182178 0.5249262116496 -0.753877182178 0.3222077738836 0.2285122333243
7.063800000000001 0.3262005668365 0.2227661608440 0.5248541585411 -0.753902693878 0.5248541585411 -0.753902693878 0.3222366671092 0.2285421849972
7.064000000000000 0.3262784972106 0.2227251124824 0.5247807908292 -0.753928639078 0.5247807908292 -0.753928639078 0.3222660083679 0.2285730726474
7.064200000000000 0.3263581293283 0.2226831408047 0.5247060569973 -0.753955034240 0.5247060569973 -0.753955034240 0.3222958155322 0.2286049326894
7.064400000000000 0.3264395301918 0.2226402086521 0.5246299028026 -0.753981896673 0.5246299028026 -0.753981896673 0.3223261074361 0.2286378034497
7.064600000000000 0.3265227703663 0.2225962768440 0.5245522710930 -0.754009244579 0.5245522710930 -0.754009244579 0.3223569039413 0.2286717252937
7.064800000000001 0.3266079242196 0.2225513040384 0.5244731016095 -0.754037097117 0.5244731016095 -0.754037097117 0.3223882260073 0.2287067407637
7.065000000000000 0.3266950701818 0.2225052465809 0.5243923307726 -0.754065474463 0.5243923307726 -0.754065474463 0.3224200957691 0.2287428947267
7.065200000000001 0.3267842910262 0.2224580583408 0.5243098914501 -0.754094397882 0.5243098914501 -0.754094397882 0.3224525366204 0.2287802345361
7.065400000000000 0.3268756741747 0.2224096905332 0.5242257127052 -0.754123889800 0.5242257127052 -0.754123889800 0.3224855733042 0.2288188102060
7.065600000000001 0.3269693120282 0.2223600915251 0.5241397195238 -0.754153973884 0.5241397195238 -0.754153973884 0.3225192320116 0.2288586746009
7.065800000000000 0.3270653023265 0.2223092066251 0.5240518325167 -0.754184675132 0.5240518325167 -0.754184675132 0.3225535404892 0.2288998836415
7.066000000000001 0.3271637485390 0.2222569778530 0.5239619675963 -0.754216019961 0.5239619675963 -0.754216019961 0.3225885281564 0.2289424965287
7.066200000000000 0.3272647602913 0.2222033436894 0.5238700356237 -0.754248036319 0.5238700356237 -0.754248036319 0.3226242262329 0.2289865759881
7.066400000000001 0.3273684538296 0.2221482388016 0.5237759420239 -0.754280753786 0.5237759420239 -0.754280753786 0.3226606678791 0.2290321885356
7.066600000000000 0.3274749525280 0.2220915937433 0.5236795863647 -0.754314203706 0.5236795863647 -0.754314203706 0.3226978883486 0.2290794047685
7.066800000000001 0.3275843874434 0.2220333346264 0.5235808618965 -0.754348419312 0.5235808618965 -0.754348419312 0.3227359251561 0.2291282996831
7.067000000000000 0.3276968979229 0.2219733827595 0.5234796550475 -0.754383435871 0.5234796550475 -0.754383435871 0.3227748182618 0.2291789530231
7.067200000000001 0.3278126322692 0.2219116542523 0.5233758448701 -0.754419290849 0.5233758448701 -0.754419290849 0.3228146102734 0.2292314496605
7.067400000000000 0.3279317484726 0.2218480595784 0.5232693024322 -0.754456024074 0.5232693024322 -0.754456024074 0.3228553466689 0.2292858800152
7.067600000000001 0.3280544150143 0.2217825030950 0.5231598901478 -0.754493677934 0.5231598901478 -0.754493677934 0.3228970760426 0.2293423405156
7.067800000000000 0.3281808117517 0.2217148825112 0.5230474610378 -0.754532297581 0.5230474610378 -0.754532297581 0.3229398503764 0.2294009341058
7.068000000000001 0.3283111308952 0.2216450883008 0.5229318579157 -0.754571931160 0.5229318579157 -0.754571931160 0.3229837253397 0.2294617708053
7.068200000000000 0.3284455780867 0.2215730030515 0.5228129124851 -0.754612630062 0.5228129124851 -0.754612630062 0.3230287606223 0.2295249683275
7.068400000000000 0.3285843735937 0.2214985007425 0.5226904443413 -0.754654449199 0.5226904443413 -0.754654449199 0.3230750203036 0.2295906527641
7.068600000000001 0.3287277536327 0.2214214459415 0.5225642598623 -0.754697447314 0.5225642598623 -0.754697447314 0.3231225732634 0.2296589593437
7.068800000000000 0.3288759718384 0.2213416929100 0.5224341509762 -0.754741687316 0.5224341509762 -0.754741687316 0.3231714936393 0.2297300332747
7.069000000000001 0.3290293009000 0.2212590846045 0.5222998937875 -0.754787236660 0.5222998937875 -0.754787236660 0.3232218613384 0.2298040306826
7.069200000000000 0.3291880343835 0.2211734515602 0.5221612470448 -0.754834167757 0.5221612470448 -0.754834167757 0.3232737626079 0.2298811196555
7.069400000000001 0.3293524887678 0.2210846106379 0.5220179504255 -0.754882558444 0.5220179504255 -0.754882558444 0.3233272906775 0.2299614814124
7.069600000000000 0.3295230057248 0.2209923636189 0.5218697226143 -0.754932492495 0.5218697226143 -0.754932492495 0.3233825464787 0.2300453116097
7.069800000000001 0.3296999546758 0.2208964956209 0.5217162591435 -0.754984060200 0.5217162591435 -0.754984060200 0.3234396394564 0.2301328218085
7.070000000000000 0.3298837356659 0.2207967733109 0.5215572299627 -0.755037359004 0.5215572299627 -0.755037359004 0.3234986884854 0.2302242411233
7.070200000000001 0.3300747826041 0.2206929428839 0.5213922766937 -0.755092494235 0.5213922766937 -0.755092494235 0.3235598229062 0.2303198180806
7.070400000000000 0.3302735669216 0.2205847277690 0.5212210095268 -0.755149579907 0.5212210095268 -0.755149579907 0.3236231837020 0.2304198227184
7.070600000000001 0.3304806017170 0.2204718260213 0.5210430036977 -0.755208739634 0.5210430036977 -0.755208739634 0.3236889248375 0.2305245489647
7.070800000000000 0.3306964464606 0.2203539073464 0.5208577954818 -0.755270107661 0.5208577954818 -0.755270107661 0.3237572147852 0.2306343173376
7.071000000000001 0.3309217123537 0.2202306096972 0.5206648776228 -0.755333830021 0.5206648776228 -0.755333830021 0.3238282382745 0.2307494780208
7.071200000000000 0.3311570684447 0.2201015353690 0.5204636941049 -0.755400065857 0.5204636941049 -0.755400065857 0.3239021982973 0.2308704143758
7.071400000000001 0.3314032486363 0.2199662465034 0.5202536341509 -0.755468988915 0.5202536341509 -0.755468988915 0.3239793184192 0.2309975469642
7.071600000000000 0.3316610597356 0.2198242598965 0.5200340253132 -0.755540789254 0.5200340253132 -0.755540789254 0.3240598454496 0.2311313381703
7.071800000000001 0.3319313907321 0.2196750409808 0.5198041254919 -0.755615675193 0.5198041254919 -0.755615675193 0.3241440525384 0.2312722975302
7.072000000000000 0.3322152235294 0.2195179968230 0.5195631136804 -0.755693875543 0.5195631136804 -0.755693875543 0.3242322427803 0.2314209878956
7.072174315091596 0.3324744633447 0.2193742256447 0.5193432821736 -0.755764932318 0.5193432821736 -0.755764932318 0.3243126182705 0.2315573732049
7.072200000000000 0.3325136454035 0.2193524679465 0.5193100791961 -0.755775642179 0.5193100791961 -0.755775642179 0.3243247534270 0.2315780325911
7.072344635964552 0.3327392258978 0.2192270613501 0.5191190301307 -0.755837152316 0.5191190301307 -0.755837152316 0.3243945584033 0.2316971980983
7.072400000000000 0.3328278635177 0.2191777187414 0.5190440090990 -0.755861252994 0.5190440090990 -0.755861252994 0.3244219608289 0.2317441237555
7.072511054141539 0.3330096485843 0.2190764055502 0.5188902291003 -0.755910561802 0.5188902291003 -0.755910561802 0.3244781182120 0.2318405354871
7.072600000000000 0.3331592219059 0.2189929261690 0.5187637734303 -0.755951015329 0.5187637734303 -0.755951015329 0.3245242862603 0.2319200321006
7.072673659048094 0.3332858715652 0.2189221570588 0.5186567478319 -0.755985187058 0.5186567478319 -0.755985187058 0.3245633541215 0.2319874600379
7.072800000000001 0.3335092214214 0.2187971663972 0.5184681078229 -0.756045269940 0.5184681078229 -0.756045269940 0.3246322028137 0.2321066183808
7.072832538060680 0.3335680378278 0.2187642117943 0.5184184521902 -0.756061054365 0.5184184521902 -0.756061054365 0.3246503240031 0.2321380482045
7.072987776553632 0.3338562932449 0.2186024626781 0.5181752050666 -0.756138189989 0.5181752050666 -0.756138189989 0.3247390872324 0.2322923782600
7.073000000000000 0.3338795432813 0.2185893989110 0.5181555929127 -0.756144395632 0.5181555929127 -0.756144395632 0.3247462436052 0.2323048469272
7.073139457945035 0.3341507866350 0.2184367995301 0.5179268662892 -0.756216620156 0.5179268662892 -0.756216620156 0.3248297047482 0.2324505303313
7.073200000000001 0.3342720769765 0.2183684475244 0.5178246298528 -0.756248814666 0.5178246298528 -0.756248814666 0.3248670115818 0.2325158017005
7.073287663741554 0.3344516698234 0.2182671089580 0.5176732925304 -0.756296371032 0.5176732925304 -0.756296371032 0.3249222391138 0.2326125864312
7.073400000000000 0.3346889535288 0.2181329775678 0.5174734110334 -0.756358999111 0.5174734110334 -0.756358999111 0.3249951913167 0.2327407054194
7.073432473582223 0.3347590977032 0.2180932742460 0.5174143372122 -0.756377468700 0.5174143372122 -0.756377468700 0.3250167545804 0.2327786304939
7.073573965281247 0.3350732282978 0.2179151752352 0.5171498504079 -0.756459939134 0.5171498504079 -0.756459939134 0.3251133171538 0.2329487484083
7.073600000000001 0.3351325853219 0.2178814683186 0.5170998848836 -0.756475478322 0.5170998848836 -0.756475478322 0.3251315632711 0.2329809424787
7.073712214869812 0.3353942228220 0.2177326882030 0.5168796787434 -0.756543808170 0.5168796787434 -0.756543808170 0.3252119946617 0.2331230280530
7.073800000000000 0.3356057140778 0.2176121794844 0.5167017133050 -0.756598847787 0.5167017133050 -0.756598847787 0.3252770211482 0.2332380865606
7.073847296636943 0.3357222457443 0.2175456857360 0.5166036652945 -0.756629101477 0.5166036652945 -0.756629101477 0.3253128568252 0.2333015593320
7.073979283169421 0.3360574648503 0.2173540365987 0.5163216494816 -0.756715844523 0.5163216494816 -0.756715844523 0.3254159753321 0.2334844342092
7.074000000000001 0.3361114689853 0.2173231101842 0.5162762198805 -0.756729779645 0.5162762198805 -0.756729779645 0.3254325931470 0.2335139340985
